
T13CC 000:421 SEGGER J-Link V4.40c Log File (0000ms, 0418ms total)
T13CC 000:421 DLL Compiled: Jan 24 2012 09:30:33 (0001ms, 0418ms total)
T13CC 000:421 Logging started @ 2013-11-14 15:26 (0001ms, 0418ms total)
T13CC 000:422 JLINK_SetWarnOutHandler(...) (0000ms, 0419ms total)
T13CC 000:422 JLINK_OpenEx(...)
Firmware: J-Link ARM V8 compiled Dec  6 2011 18:57:44
Hardware: V8.00
S/N: 20100214
Feature(s): RDI,FlashDL,FlashBP,JFlash,GDBFull  returns O.K. (0160ms, 0419ms total)
T13CC 000:582 JLINK_SetErrorOutHandler(...) (0000ms, 0579ms total)
T13CC 000:583 JLINK_ExecCommand("Device = rn8213", ...)  returns 0x00 (0000ms, 0579ms total)
T13CC 000:585 JLINK_ExecCommand("ProjectFile = "D:\Keil\cai\RA9103a0_test\RN8213_FT_20131111\testcase\EMU_FT\build\JLinkSettings.ini"", ...)  returns 0x00 (0001ms, 0579ms total)
T13CC 000:588 JLINK_ExecCommand("DisableConnectionTimeout", ...)  returns 0x00 (0000ms, 0580ms total)
T13CC 000:589 JLINK_TIF_Select(JLINKARM_TIF_SWD)  returns 0x00 (0000ms, 0580ms total)
T13CC 000:589 JLINK_SetSpeed(2000) (0001ms, 0580ms total)
T13CC 000:590 JLINK_GetHardwareVersion()  returns 0x13880 (0000ms, 0581ms total)
T13CC 000:590 JLINK_GetDLLVersion()  returns 44003 (0000ms, 0581ms total)
T13CC 000:590 JLINK_GetFirmwareString(...) (0000ms, 0581ms total)
T13CC 000:592 JLINK_GetDLLVersion()  returns 44003 (0000ms, 0581ms total)
T13CC 000:592 JLINK_GetCompileDateTime() (0000ms, 0581ms total)
T13CC 000:593 JLINK_GetFirmwareString(...) (0000ms, 0581ms total)
T13CC 000:594 JLINK_GetHardwareVersion()  returns 0x13880 (0000ms, 0581ms total)
T13CC 000:596 JLINK_GetId() >0x108 TIF>Found SWD-DP with ID 0x0BB11477 >0x33 TIF> >0x33 TIF> >0x35 TIF> >0x33 TIF> >0x35 TIF> >0x33 TIF> >0x33 TIF> >0x35 TIF> >0x33 TIF> >0x33 TIF> >0x35 TIF> >0x33 TIF> >0x33 TIF> >0x35 TIF> >0x33 TIF> >0x33 TIF> >0x35 TIF> >0x35 TIF> >0x35 TIF> >0x33 TIF> >0x33 TIF> >0x35 TIF> >0x33 TIF> >0x33 TIF> >0x33 TIF> >0x35 TIF> >0x33 TIF> >0x33 TIF> >0x35 TIF> >0x33 TIF> >0x33 TIF>  FPUnit: 4 code (BP) slots and 0 literal slots >0x35 TIF> >0x33 TIF> >0x33 TIF> >0x35 TIF>
 >0x33 TIF> >0x33 TIF> >0x35 TIF> >0x33 TIF> >0x33 TIF> >0x35 TIF> >0x33 TIF> >0x33 TIF>Found Cortex-M0 r0p0, Little endian. >0x33 TIF>  returns 0x0BB11477 (0061ms, 0581ms total)
T13CC 000:657 JLINK_GetDebugInfo(0x100) -- Value=0xE00FF003  returns 0x00 (0000ms, 0642ms total)
T13CC 000:657 JLINK_ReadMem (0xE00FFFF0, 0x0010 Bytes, ...) -- CPU is running -- CPU_ReadMem(16 bytes @ 0xE00FFFF0) -- Data:  0D 00 00 00 10 00 00 00 05 00 00 00 B1 00 00 00  returns 0x00 (0002ms, 0642ms total)
T13CC 000:659 JLINK_ReadMem (0xE00FFFD0, 0x0020 Bytes, ...) -- CPU is running -- CPU_ReadMem(32 bytes @ 0xE00FFFD0) -- Data:  04 00 00 00 00 00 00 00 00 00 00 00 00 00 00 00 ...  returns 0x00 (0002ms, 0644ms total)
T13CC 000:661 JLINK_ReadMem (0xE00FF000, 0x0018 Bytes, ...) -- CPU is running -- CPU_ReadMem(24 bytes @ 0xE00FF000) -- Data:  03 F0 F0 FF 03 20 F0 FF 03 30 F0 FF 00 00 00 00 ...  returns 0x00 (0002ms, 0646ms total)
T13CC 000:663 JLINK_ReadMemU32(0xE000ED00, 0x0001 Items, ...) -- CPU is running -- CPU_ReadMem(4 bytes @ 0xE000ED00) -- Data:  00 C2 0C 41  returns 0x01 (0002ms, 0648ms total)
T13CC 000:665 JLINK_SetResetType(JLINKARM_RESET_TYPE_HALT_WP)  returns JLINKARM_RESET_TYPE_NORMAL (0000ms, 0650ms total)
T13CC 000:665 JLINK_Reset() >0x108 TIF>Found SWD-DP with ID 0x0BB11477 >0x33 TIF> >0x33 TIF> >0x35 TIF> >0x33 TIF> >0x35 TIF> >0x33 TIF> >0x33 TIF> >0x35 TIF> >0x33 TIF> >0x33 TIF> >0x35 TIF> >0x33 TIF> >0x33 TIF> >0x35 TIF> >0x33 TIF> >0x33 TIF> >0x35 TIF> >0x35 TIF> >0x35 TIF> >0x33 TIF> >0x33 TIF> >0x35 TIF> >0x33 TIF> >0x33 TIF> >0x33 TIF> >0x35 TIF> >0x33 TIF> >0x33 TIF> >0x35 TIF> >0x33 TIF> >0x33 TIF>  FPUnit: 4 code (BP) slots and 0 literal slots >0x35 TIF> >0x33 TIF> >0x33 TIF> >0x35 TIF>
 >0x33 TIF> >0x33 TIF> >0x35 TIF> >0x33 TIF> >0x33 TIF> >0x35 TIF> >0x33 TIF> >0x33 TIF>Found Cortex-M0 r0p0, Little endian. -- CPU_WriteMem(4 bytes @ 0xE000EDFC) -- CPU_WriteMem(4 bytes @ 0xE000EDFC) -- CPU_WriteMem(4 bytes @ 0xE000EDFC) -- CPU_WriteMem(4 bytes @ 0xE0001020) -- CPU_WriteMem(4 bytes @ 0xE0001024) -- CPU_WriteMem(4 bytes @ 0xE0001028)CPU did not halt after bootloader. -- CPU_WriteMem(4 bytes @ 0xE000EDFC) -- CPU_WriteMem(4 bytes @ 0xE0001028) -- CPU_ReadMem(4 bytes @ 0x00000004)
 -- CPU_ReadMem(4 bytes @ 0xE0002000) -- CPU_ReadMem(4 bytes @ 0xE0002008) -- CPU_ReadMem(4 bytes @ 0xE000200C) -- CPU_ReadMem(4 bytes @ 0xE0002010) -- CPU_ReadMem(4 bytes @ 0xE0002014) -- CPU_WriteMem(4 bytes @ 0xE0002000) -- CPU_WriteMem(4 bytes @ 0xE0002008) -- CPU_WriteMem(4 bytes @ 0xE000200C) -- CPU_WriteMem(4 bytes @ 0xE0002010) -- CPU_WriteMem(4 bytes @ 0xE0002014)CPU did not halt after bootloader. -- CPU_WriteMem(4 bytes @ 0xE0002000) -- CPU_WriteMem(4 bytes @ 0xE0002008)
 -- CPU_WriteMem(4 bytes @ 0xE000200C) -- CPU_WriteMem(4 bytes @ 0xE0002010) -- CPU_WriteMem(4 bytes @ 0xE0002014) (0528ms, 0650ms total)
T13CC 001:196 JLINK_ReadReg(R15)  returns 0x00000E14 (0001ms, 1178ms total)
T13CC 001:197 JLINK_ReadReg(XPSR)  returns 0x81000000 (0001ms, 1179ms total)
T13CC 001:198 JLINK_Halt()  returns 0x00 (0000ms, 1180ms total)
T13CC 001:198 JLINK_IsHalted()  returns TRUE (0000ms, 1180ms total)
T13CC 001:198 JLINK_ReadMemU32(0xE000EDF0, 0x0001 Items, ...) -- CPU_ReadMem(4 bytes @ 0xE000EDF0) -- Data:  03 00 03 00  returns 0x01 (0001ms, 1180ms total)
T13CC 001:199 JLINK_WriteU32(0xE000EDF0, 0xA05F0003) -- CPU_WriteMem(4 bytes @ 0xE000EDF0)  returns 0x00 (0002ms, 1181ms total)
T13CC 001:201 JLINK_WriteU32(0xE000EDFC, 0x01000000) -- CPU_WriteMem(4 bytes @ 0xE000EDFC)  returns 0x00 (0001ms, 1183ms total)
T13CC 001:203 JLINK_GetHWStatus(...)  returns 0x00 (0001ms, 1184ms total)
T13CC 001:204 JLINK_GetNumBPUnits(Type = 0xFFFFFF00)  returns 0x04 (0000ms, 1185ms total)
T13CC 001:204 JLINK_GetNumBPUnits(Type = 0xF0)  returns 0x2000 (0000ms, 1185ms total)
T13CC 001:204 JLINK_GetNumWPUnits()  returns 0x02 (0000ms, 1185ms total)
T13CC 001:204 JLINK_GetSpeed()  returns 0x7D0 (0000ms, 1185ms total)
T13CC 001:204 JLINK_ReadMemU32(0xE000E004, 0x0001 Items, ...) -- CPU_ReadMem(4 bytes @ 0xE000E004) -- Data:  00 00 00 00  returns 0x01 (0002ms, 1185ms total)
T13CC 001:206 JLINK_ReadReg(R15)  returns 0x00000E14 (0000ms, 1187ms total)
T13CC 001:206 JLINK_ReadReg(XPSR)  returns 0x81000000 (0000ms, 1187ms total)
T13CC 001:212 JLINK_WriteMem(0x10001700, 0x1000 Bytes, ...) -- Data:  48 08 00 10 E9 1B 00 10 ED 1B 00 10 EF 1B 00 10 ... -- CPU_WriteMem(4096 bytes @ 0x10001700)  returns 0x1000 (0052ms, 1187ms total)
T13CC 001:265 JLINK_WriteMem(0x10002700, 0x0F14 Bytes, ...) -- Data:  01 68 00 68 40 1C 51 4B 18 60 88 00 55 49 08 58 ... -- CPU_WriteMem(3860 bytes @ 0x10002700)  returns 0xF14 (0048ms, 1239ms total)
T13CC 001:379 JLINK_SetResetType(JLINKARM_RESET_TYPE_HALT_WP)  returns JLINKARM_RESET_TYPE_HALT_WP (0000ms, 1287ms total)
T13CC 001:379 JLINK_Reset() >0x108 TIF>Found SWD-DP with ID 0x0BB11477 >0x33 TIF> >0x33 TIF> >0x35 TIF> >0x33 TIF> >0x35 TIF> >0x33 TIF> >0x33 TIF> >0x35 TIF> >0x33 TIF> >0x33 TIF> >0x35 TIF> >0x33 TIF> >0x33 TIF> >0x35 TIF> >0x33 TIF> >0x33 TIF> >0x35 TIF> >0x35 TIF> >0x35 TIF> >0x33 TIF> >0x33 TIF> >0x35 TIF> >0x33 TIF> >0x33 TIF> >0x33 TIF> >0x35 TIF> >0x33 TIF> >0x33 TIF> >0x35 TIF> >0x33 TIF> >0x33 TIF>  FPUnit: 4 code (BP) slots and 0 literal slots >0x35 TIF> >0x33 TIF> >0x33 TIF> >0x35 TIF>
 >0x33 TIF> >0x33 TIF> >0x35 TIF> >0x33 TIF> >0x33 TIF> >0x35 TIF> >0x33 TIF> >0x33 TIF>Found Cortex-M0 r0p0, Little endian. -- CPU_ReadMem(4 bytes @ 0x10002700) -- CPU_WriteMem(4 bytes @ 0x10002700) -- CPU_WriteMem(4 bytes @ 0xE000EDFC) -- CPU_WriteMem(4 bytes @ 0xE000EDFC) -- CPU_WriteMem(4 bytes @ 0xE000EDFC) -- CPU_WriteMem(4 bytes @ 0xE0001020) -- CPU_WriteMem(4 bytes @ 0xE0001024) -- CPU_WriteMem(4 bytes @ 0xE0001028)CPU did not halt after bootloader. -- CPU_WriteMem(4 bytes @ 0xE000EDFC)
 -- CPU_WriteMem(4 bytes @ 0xE0001028) -- CPU_ReadMem(4 bytes @ 0x00000004) -- CPU_ReadMem(4 bytes @ 0xE0002000) -- CPU_ReadMem(4 bytes @ 0xE0002008) -- CPU_ReadMem(4 bytes @ 0xE000200C) -- CPU_ReadMem(4 bytes @ 0xE0002010) -- CPU_ReadMem(4 bytes @ 0xE0002014) -- CPU_WriteMem(4 bytes @ 0xE0002000) -- CPU_WriteMem(4 bytes @ 0xE0002008) -- CPU_WriteMem(4 bytes @ 0xE000200C) -- CPU_WriteMem(4 bytes @ 0xE0002010) -- CPU_WriteMem(4 bytes @ 0xE0002014)CPU did not halt after bootloader.
 -- CPU_WriteMem(4 bytes @ 0xE0002000) -- CPU_WriteMem(4 bytes @ 0xE0002008) -- CPU_WriteMem(4 bytes @ 0xE000200C) -- CPU_WriteMem(4 bytes @ 0xE0002010) -- CPU_WriteMem(4 bytes @ 0xE0002014) (0528ms, 1287ms total)
T13CC 001:907 JLINK_ReadReg(R15)  returns 0x00001D84 (0000ms, 1815ms total)
T13CC 001:907 JLINK_ReadReg(XPSR)  returns 0x61000000 (0001ms, 1815ms total)
T13CC 001:908 JLINK_ReadMem (0x10001700, 0x00E0 Bytes, ...) -- CPU_ReadMem(224 bytes @ 0x10001700) -- Data:  48 08 00 10 E9 1B 00 10 ED 1B 00 10 EF 1B 00 10 ...  returns 0x00 (0004ms, 1816ms total)
T13CC 001:912 JLINK_ReadMem (0x00001D84, 0x003C Bytes, ...) -- CPU_ReadMem(64 bytes @ 0x00001D80) -- Updating DA cache (64 bytes @ 0x00001D80) -- Read from DA cache (60 bytes @ 0x00001D84) -- Data:  80 07 FA D5 03 24 3C 63 78 69 82 4A 80 4B 53 61 ...  returns 0x00 (0003ms, 1820ms total)
T13CC 002:675 JLINK_WriteReg(R13, 0x10000848)  returns 0x00 (0001ms, 1823ms total)
T13CC 002:676 JLINK_ReadReg(R0)  returns 0x00000000 (0000ms, 1824ms total)
T13CC 002:676 JLINK_ReadReg(R1)  returns 0x520000C0 (0000ms, 1824ms total)
T13CC 002:676 JLINK_ReadReg(R2)  returns 0x00000000 (0000ms, 1824ms total)
T13CC 002:676 JLINK_ReadReg(R3)  returns 0x00000000 (0000ms, 1824ms total)
T13CC 002:676 JLINK_ReadReg(R4)  returns 0x10003FC4 (0000ms, 1824ms total)
T13CC 002:676 JLINK_ReadReg(R5)  returns 0x00000000 (0000ms, 1824ms total)
T13CC 002:676 JLINK_ReadReg(R6)  returns 0x0000E100 (0000ms, 1824ms total)
T13CC 002:676 JLINK_ReadReg(R7)  returns 0x40010000 (0000ms, 1824ms total)
T13CC 002:676 JLINK_ReadReg(R8)  returns 0x00000008 (0000ms, 1824ms total)
T13CC 002:676 JLINK_ReadReg(R9)  returns 0x00000009 (0000ms, 1824ms total)
T13CC 002:676 JLINK_ReadReg(R10)  returns 0x0000000A (0000ms, 1824ms total)
T13CC 002:676 JLINK_ReadReg(R11)  returns 0x0000000B (0000ms, 1824ms total)
T13CC 002:677 JLINK_ReadReg(R12)  returns 0x00000040 (0000ms, 1825ms total)
T13CC 002:677 JLINK_ReadReg(R13)  returns 0x10000848 (0000ms, 1825ms total)
T13CC 002:677 JLINK_ReadReg(R14)  returns 0x00001D83 (0000ms, 1825ms total)
T13CC 002:677 JLINK_ReadReg(R15)  returns 0x00001D84 (0000ms, 1825ms total)
T13CC 002:677 JLINK_ReadReg(XPSR)  returns 0x61000000 (0000ms, 1825ms total)
T13CC 002:677 JLINK_ReadReg(MSP)  returns 0x10000848 (0000ms, 1825ms total)
T13CC 002:677 JLINK_ReadReg(PSP)  returns 0x00002848 (0000ms, 1825ms total)
T13CC 002:677 JLINK_ReadReg(CFBP)  returns 0x00000000 (0000ms, 1825ms total)
T13CC 002:677 JLINK_WriteReg(R15, 0x10001BE8)  returns 0x00 (0000ms, 1825ms total)
T13CC 002:677 JLINK_ReadReg(R0)  returns 0x00000000 (0000ms, 1825ms total)
T13CC 002:677 JLINK_ReadReg(R1)  returns 0x520000C0 (0000ms, 1825ms total)
T13CC 002:677 JLINK_ReadReg(R2)  returns 0x00000000 (0000ms, 1825ms total)
T13CC 002:677 JLINK_ReadReg(R3)  returns 0x00000000 (0000ms, 1825ms total)
T13CC 002:677 JLINK_ReadReg(R4)  returns 0x10003FC4 (0000ms, 1825ms total)
T13CC 002:677 JLINK_ReadReg(R5)  returns 0x00000000 (0000ms, 1825ms total)
T13CC 002:677 JLINK_ReadReg(R6)  returns 0x0000E100 (0000ms, 1825ms total)
T13CC 002:677 JLINK_ReadReg(R7)  returns 0x40010000 (0000ms, 1825ms total)
T13CC 002:677 JLINK_ReadReg(R8)  returns 0x00000008 (0000ms, 1825ms total)
T13CC 002:677 JLINK_ReadReg(R9)  returns 0x00000009 (0000ms, 1825ms total)
T13CC 002:677 JLINK_ReadReg(R10)  returns 0x0000000A (0001ms, 1825ms total)
T13CC 002:678 JLINK_ReadReg(R11)  returns 0x0000000B (0000ms, 1826ms total)
T13CC 002:678 JLINK_ReadReg(R12)  returns 0x00000040 (0000ms, 1826ms total)
T13CC 002:678 JLINK_ReadReg(R13)  returns 0x10000848 (0000ms, 1826ms total)
T13CC 002:678 JLINK_ReadReg(R14)  returns 0x00001D83 (0000ms, 1826ms total)
T13CC 002:678 JLINK_ReadReg(R15)  returns 0x10001BE8 (0000ms, 1826ms total)
T13CC 002:678 JLINK_ReadReg(XPSR)  returns 0x61000000 (0000ms, 1826ms total)
T13CC 002:678 JLINK_ReadReg(MSP)  returns 0x10000848 (0000ms, 1826ms total)
T13CC 002:678 JLINK_ReadReg(PSP)  returns 0x00002848 (0000ms, 1826ms total)
T13CC 002:678 JLINK_ReadReg(CFBP)  returns 0x00000000 (0000ms, 1826ms total)
T13C4 002:687 JLINK_SetBPEx(Addr = 0x10003462, Type = 0xFFFFFFF2)  returns 0x00000001 (0000ms, 1826ms total)
T13C4 002:687 JLINK_SetBPEx(Addr = 0x1000245A, Type = 0xFFFFFFF2)  returns 0x00000002 (0000ms, 1826ms total)
T13C4 002:687 JLINK_Go() -- CPU_WriteMem(4 bytes @ 0xE0002000) -- CPU_WriteMem(4 bytes @ 0xE0002008) -- CPU_WriteMem(4 bytes @ 0xE000200C) -- CPU_WriteMem(4 bytes @ 0xE0002010) -- CPU_WriteMem(4 bytes @ 0xE0002014) (0014ms, 1826ms total)
T13C4 002:803 JLINK_IsHalted()  returns TRUE (0008ms, 1840ms total)
T13C4 002:811 JLINK_Halt()  returns 0x00 (0003ms, 1840ms total)
T13C4 002:814 JLINK_IsHalted()  returns TRUE (0000ms, 1843ms total)
T13C4 002:814 JLINK_IsHalted()  returns TRUE (0000ms, 1843ms total)
T13C4 002:814 JLINK_IsHalted()  returns TRUE (0000ms, 1843ms total)
T13C4 002:814 JLINK_ReadReg(R15)  returns 0x10003462 (0000ms, 1843ms total)
T13C4 002:814 JLINK_ReadReg(XPSR)  returns 0x61000000 (0000ms, 1843ms total)
T13C4 002:814 JLINK_ClrBPEx(BPHandle = 0x00000001)  returns 0x00 (0000ms, 1843ms total)
T13C4 002:814 JLINK_ClrBPEx(BPHandle = 0x00000002)  returns 0x00 (0000ms, 1843ms total)
T13C4 002:814 JLINK_ReadMemU32(0xE000ED30, 0x0001 Items, ...) -- CPU_ReadMem(4 bytes @ 0xE000ED30) -- Data:  03 00 00 00  returns 0x01 (0002ms, 1843ms total)
T13C4 002:816 JLINK_ReadMemU32(0xE0001028, 0x0001 Items, ...) -- CPU_ReadMem(4 bytes @ 0xE0001028) -- Data:  00 00 00 00  returns 0x01 (0001ms, 1845ms total)
T13C4 002:817 JLINK_ReadMemU32(0xE0001038, 0x0001 Items, ...) -- CPU_ReadMem(4 bytes @ 0xE0001038) -- Data:  00 00 00 00  returns 0x01 (0002ms, 1846ms total)
T13C4 002:819 JLINK_ReadReg(R0)  returns 0x10003463 (0000ms, 1848ms total)
T13C4 002:819 JLINK_ReadReg(R1)  returns 0x10000848 (0000ms, 1848ms total)
T13C4 002:819 JLINK_ReadReg(R2)  returns 0x00000000 (0000ms, 1848ms total)
T13C4 002:819 JLINK_ReadReg(R3)  returns 0x100035BD (0000ms, 1848ms total)
T13C4 002:819 JLINK_ReadReg(R4)  returns 0x100035EC (0000ms, 1848ms total)
T13C4 002:819 JLINK_ReadReg(R5)  returns 0x00000001 (0000ms, 1848ms total)
T13C4 002:819 JLINK_ReadReg(R6)  returns 0x100035EC (0000ms, 1848ms total)
T13C4 002:819 JLINK_ReadReg(R7)  returns 0x40010000 (0000ms, 1848ms total)
T13C4 002:819 JLINK_ReadReg(R8)  returns 0x00000008 (0000ms, 1848ms total)
T13C4 002:819 JLINK_ReadReg(R9)  returns 0x00000009 (0000ms, 1848ms total)
T13C4 002:819 JLINK_ReadReg(R10)  returns 0x0000000A (0000ms, 1848ms total)
T13C4 002:819 JLINK_ReadReg(R11)  returns 0x0000000B (0000ms, 1848ms total)
T13C4 002:819 JLINK_ReadReg(R12)  returns 0x00000040 (0000ms, 1848ms total)
T13C4 002:819 JLINK_ReadReg(R13)  returns 0x10000848 (0000ms, 1848ms total)
T13C4 002:819 JLINK_ReadReg(R14)  returns 0x10003589 (0000ms, 1848ms total)
T13C4 002:819 JLINK_ReadReg(R15)  returns 0x10003462 (0000ms, 1848ms total)
T13C4 002:819 JLINK_ReadReg(XPSR)  returns 0x61000000 (0000ms, 1848ms total)
T13C4 002:820 JLINK_ReadReg(MSP)  returns 0x10000848 (0000ms, 1849ms total)
T13C4 002:820 JLINK_ReadReg(PSP)  returns 0x00002848 (0000ms, 1849ms total)
T13C4 002:820 JLINK_ReadReg(CFBP)  returns 0x00000000 (0000ms, 1849ms total)
T13CC 002:825 JLINK_ReadMem (0x10001700, 0x00E0 Bytes, ...) -- CPU_ReadMem(256 bytes @ 0x10001700) -- Updating DA cache (256 bytes @ 0x10001700) -- Read from DA cache (224 bytes @ 0x10001700) -- Data:  48 08 00 10 E9 1B 00 10 ED 1B 00 10 EF 1B 00 10 ...  returns 0x00 (0005ms, 1849ms total)
T13CC 002:834 JLINK_ReadMem (0x10003462, 0x0002 Bytes, ...) -- CPU_ReadMem(64 bytes @ 0x10003440) -- Updating DA cache (64 bytes @ 0x10003440) -- Read from DA cache (2 bytes @ 0x10003462) -- Data:  62 B6  returns 0x00 (0002ms, 1854ms total)
T13CC 002:836 JLINK_ReadMem (0x10003464, 0x003C Bytes, ...) -- CPU_ReadMem(64 bytes @ 0x10003480) -- Updating DA cache (64 bytes @ 0x10003480) -- Read from DA cache (60 bytes @ 0x10003464) -- Data:  12 20 00 F0 55 F8 FE F7 F9 FF FF F7 2A F8 82 20 ...  returns 0x00 (0003ms, 1856ms total)
T13C4 007:110 JLINK_SetBPEx(Addr = 0x1000245A, Type = 0xFFFFFFF2)  returns 0x00000003 (0002ms, 1859ms total)
T13C4 007:112 JLINK_Go() -- CPU_WriteMem(4 bytes @ 0xE000200C) -- CPU_WriteMem(4 bytes @ 0xE0002008) -- CPU_WriteMem(4 bytes @ 0xE0002008) -- CPU_WriteMem(4 bytes @ 0xE000200C) -- CPU_WriteMem(4 bytes @ 0xE0002010) -- CPU_WriteMem(4 bytes @ 0xE0002014) (0012ms, 1861ms total)
T13C4 007:225 JLINK_IsHalted()  returns TRUE (0004ms, 1873ms total)
T13C4 007:229 JLINK_Halt()  returns 0x00 (0000ms, 1873ms total)
T13C4 007:229 JLINK_IsHalted()  returns TRUE (0001ms, 1873ms total)
T13C4 007:230 JLINK_IsHalted()  returns TRUE (0000ms, 1873ms total)
T13C4 007:230 JLINK_IsHalted()  returns TRUE (0000ms, 1873ms total)
T13C4 007:230 JLINK_ReadReg(R15)  returns 0x1000245A (0000ms, 1873ms total)
T13C4 007:230 JLINK_ReadReg(XPSR)  returns 0x21000000 (0000ms, 1873ms total)
T13C4 007:230 JLINK_ClrBPEx(BPHandle = 0x00000003)  returns 0x00 (0000ms, 1873ms total)
T13C4 007:230 JLINK_ReadMemU32(0xE000ED30, 0x0001 Items, ...) -- CPU_ReadMem(4 bytes @ 0xE000ED30) -- Data:  03 00 00 00  returns 0x01 (0001ms, 1873ms total)
T13C4 007:231 JLINK_ReadMemU32(0xE0001028, 0x0001 Items, ...) -- CPU_ReadMem(4 bytes @ 0xE0001028) -- Data:  00 00 00 00  returns 0x01 (0002ms, 1874ms total)
T13C4 007:233 JLINK_ReadMemU32(0xE0001038, 0x0001 Items, ...) -- CPU_ReadMem(4 bytes @ 0xE0001038) -- Data:  00 00 00 00  returns 0x01 (0001ms, 1876ms total)
T13C4 007:234 JLINK_ReadReg(R0)  returns 0x98765432 (0000ms, 1877ms total)
T13C4 007:234 JLINK_ReadReg(R1)  returns 0x100037F8 (0001ms, 1877ms total)
T13C4 007:235 JLINK_ReadReg(R2)  returns 0x10000028 (0000ms, 1878ms total)
T13C4 007:235 JLINK_ReadReg(R3)  returns 0x000F4240 (0000ms, 1878ms total)
T13C4 007:235 JLINK_ReadReg(R4)  returns 0x100035EC (0000ms, 1878ms total)
T13C4 007:235 JLINK_ReadReg(R5)  returns 0x00000001 (0000ms, 1878ms total)
T13C4 007:235 JLINK_ReadReg(R6)  returns 0x100035EC (0000ms, 1878ms total)
T13C4 007:235 JLINK_ReadReg(R7)  returns 0x40010000 (0000ms, 1878ms total)
T13C4 007:235 JLINK_ReadReg(R8)  returns 0x00000008 (0000ms, 1878ms total)
T13C4 007:235 JLINK_ReadReg(R9)  returns 0x00000009 (0000ms, 1878ms total)
T13C4 007:235 JLINK_ReadReg(R10)  returns 0x0000000A (0000ms, 1878ms total)
T13C4 007:235 JLINK_ReadReg(R11)  returns 0x0000000B (0000ms, 1878ms total)
T13C4 007:235 JLINK_ReadReg(R12)  returns 0x00000040 (0000ms, 1878ms total)
T13C4 007:235 JLINK_ReadReg(R13)  returns 0x10000848 (0000ms, 1878ms total)
T13C4 007:235 JLINK_ReadReg(R14)  returns 0x10003515 (0000ms, 1878ms total)
T13C4 007:235 JLINK_ReadReg(R15)  returns 0x1000245A (0000ms, 1878ms total)
T13C4 007:235 JLINK_ReadReg(XPSR)  returns 0x21000000 (0000ms, 1878ms total)
T13C4 007:235 JLINK_ReadReg(MSP)  returns 0x10000848 (0000ms, 1878ms total)
T13C4 007:235 JLINK_ReadReg(PSP)  returns 0x00002848 (0000ms, 1878ms total)
T13C4 007:235 JLINK_ReadReg(CFBP)  returns 0x00000000 (0000ms, 1878ms total)
T13CC 007:236 JLINK_ReadMem (0x10001700, 0x00E0 Bytes, ...) -- CPU_ReadMem(256 bytes @ 0x10001700) -- Updating DA cache (256 bytes @ 0x10001700) -- Read from DA cache (224 bytes @ 0x10001700) -- Data:  48 08 00 10 E9 1B 00 10 ED 1B 00 10 EF 1B 00 10 ...  returns 0x00 (0005ms, 1878ms total)
T13CC 009:856 JLINK_Close() -- CPU_WriteMem(4 bytes @ 0xE0002008) -- CPU_WriteMem(4 bytes @ 0xE000200C) -- CPU_WriteMem(4 bytes @ 0xE0002010) -- CPU_WriteMem(4 bytes @ 0xE0002014) (0116ms, 1883ms total)
T13CC 010:149 JLINK_Close() (0000ms, 1999ms total)
T13CC 010:149 JLINK_Close() (0000ms, 1999ms total)
